                          * d:\soc\cp_test\cp_test.cir
                          Transient Analysis  Tue Oct 04 21:46:17  2022
--------------------------------------------------------------------------------
Index   time            v1#branch       v2#branch       v3#branch       
--------------------------------------------------------------------------------
0	0.000000e+00	0.000000e+00	0.000000e+00	-1.90501e-04	
1	1.000000e-10	5.877792e-09	-7.29664e-06	-1.86869e-04	
2	2.000000e-10	6.944549e-09	-7.87309e-06	-1.86240e-04	
3	4.000000e-10	7.379141e-09	-8.25973e-06	-1.85765e-04	
4	8.000000e-10	7.427171e-09	-8.10131e-06	-1.85895e-04	
5	1.600000e-09	8.968857e-09	-8.20223e-06	-1.85810e-04	
6	3.200000e-09	-1.33573e-08	-1.05440e-05	-1.87614e-04	
7	4.871663e-09	-6.51654e-08	-1.77367e-05	-1.97174e-04	
8	6.316172e-09	6.127864e-08	-5.16851e-06	-1.99075e-04	
9	7.771244e-09	-5.80004e-08	-1.80273e-05	-1.95835e-04	
10	9.123265e-09	5.479726e-08	-4.84458e-06	-1.83030e-04	
11	1.000000e-08	-5.02661e-08	-1.80674e-05	-1.94859e-04	
12	1.015456e-08	-5.65040e-09	-4.79957e-07	-1.90843e-04	
13	1.046367e-08	4.374016e-09	3.728877e-07	-1.90274e-04	
14	1.108189e-08	-3.83608e-09	-3.30436e-07	-1.90740e-04	
15	1.231833e-08	3.589402e-09	3.114328e-07	-1.90316e-04	
16	1.479123e-08	-3.47143e-09	-3.02474e-07	-1.90719e-04	
17	1.973701e-08	3.413628e-09	2.980870e-07	-1.90322e-04	
18	2.000000e-08	-2.46500e-09	-2.28427e-07	-1.90664e-04	
19	2.013544e-08	-5.27907e-10	1.162778e-05	-1.92173e-04	
20	2.040633e-08	3.843729e-10	1.169669e-05	-1.91904e-04	
21	2.094811e-08	-3.35443e-10	1.136685e-05	-1.91882e-04	
22	2.203166e-08	2.996846e-10	1.123398e-05	-1.91544e-04	
23	2.419876e-08	-3.14679e-10	1.095980e-05	-1.91602e-04	
24	2.705689e-08	-3.00883e-09	1.179852e-05	-1.97279e-04	
25	3.000000e-08	6.194097e-09	7.409259e-06	-1.96527e-04	
26	3.030744e-08	4.351340e-09	8.439599e-07	-1.92309e-04	
27	3.092233e-08	2.019128e-09	7.179080e-08	-1.90992e-04	
28	3.215210e-08	6.651283e-10	1.295994e-07	-1.90786e-04	
29	3.401963e-08	4.676466e-10	-5.18557e-08	-1.90537e-04	
30	3.605026e-08	1.819703e-10	7.364271e-08	-1.90625e-04	
31	4.011153e-08	2.232018e-10	-5.13558e-08	-1.90486e-04	
32	4.823406e-08	1.011525e-11	5.869665e-08	-1.90573e-04	
33	5.823406e-08	1.234749e-10	-5.18689e-08	-1.90465e-04	
34	6.823406e-08	-3.12944e-11	5.371979e-08	-1.90559e-04	
35	7.823406e-08	1.009352e-10	-4.95596e-08	-1.90463e-04	
36	8.823406e-08	-4.37929e-11	5.010481e-08	-1.90552e-04	
37	9.823406e-08	9.143462e-11	-4.68833e-08	-1.90463e-04	
38	1.082341e-07	-4.96742e-11	4.693176e-08	-1.90547e-04	
39	1.182341e-07	8.588812e-11	-4.42281e-08	-1.90465e-04	
40	1.282341e-07	-5.29444e-11	4.403125e-08	-1.90544e-04	
41	1.382341e-07	8.215410e-11	-4.16705e-08	-1.90467e-04	
42	1.482341e-07	-5.49200e-11	4.134270e-08	-1.90540e-04	
43	1.582341e-07	7.938876e-11	-3.92342e-08	-1.90469e-04	
44	1.682341e-07	-5.61578e-11	3.883546e-08	-1.90537e-04	
45	1.782341e-07	7.720204e-11	-3.69251e-08	-1.90471e-04	
46	1.882341e-07	-5.69370e-11	3.645266e-08	-1.90534e-04	
47	1.982341e-07	7.538819e-11	-3.47405e-08	-1.90473e-04	
48	2.000000e-07	-5.55943e-11	2.973291e-08	-1.90527e-04	
49	2.001535e-07	5.111204e-09	-7.54505e-06	-1.86574e-04	
50	2.004606e-07	6.245165e-09	-8.45484e-06	-1.85521e-04	
51	2.010747e-07	5.776505e-09	-7.96487e-06	-1.85989e-04	
52	2.023030e-07	8.787012e-09	-8.69436e-06	-1.85588e-04	
53	2.037527e-07	-4.08449e-08	-1.40282e-05	-1.91455e-04	
54	2.050839e-07	3.432616e-08	-1.19538e-05	-1.91305e-04	

Index   time            v1#branch       v2#branch       v3#branch       
--------------------------------------------------------------------------------
55	2.068169e-07	-3.27383e-08	-1.11460e-05	-1.99031e-04	
56	2.083984e-07	3.115166e-08	-1.14178e-05	-1.88761e-04	
57	2.100000e-07	-2.96800e-08	-1.17692e-05	-1.89564e-04	
58	2.101949e-07	-2.82236e-09	1.891500e-07	-1.90549e-04	
59	2.105847e-07	2.306374e-09	-1.41983e-07	-1.90491e-04	
60	2.113642e-07	-2.08044e-09	1.224669e-07	-1.90544e-04	
61	2.129234e-07	1.974771e-09	-1.13605e-07	-1.90493e-04	
62	2.160416e-07	-1.92379e-09	1.093541e-07	-1.90542e-04	
63	2.200000e-07	1.884333e-09	-1.06120e-07	-1.90491e-04	
64	2.206237e-07	1.408152e-11	1.163117e-05	-1.92025e-04	
65	2.218710e-07	-2.29156e-11	1.109595e-05	-1.91492e-04	
66	2.243656e-07	-6.13312e-12	1.112110e-05	-1.91675e-04	
67	2.273045e-07	-4.07149e-09	1.136829e-05	-1.98198e-04	
68	2.300000e-07	3.060541e-09	7.753299e-06	-1.96237e-04	
69	2.303216e-07	2.723985e-09	5.469620e-07	-1.91647e-04	
70	2.309649e-07	1.495985e-09	-6.84782e-10	-1.90814e-04	
71	2.322514e-07	5.931464e-10	1.369825e-07	-1.90772e-04	
72	2.348244e-07	3.417212e-10	-7.23725e-08	-1.90495e-04	
73	2.374117e-07	1.565281e-10	8.562634e-08	-1.90626e-04	
74	2.425864e-07	1.559851e-10	-6.73020e-08	-1.90461e-04	
75	2.525864e-07	2.637499e-11	7.197619e-08	-1.90584e-04	
76	2.625864e-07	7.933573e-11	-6.53433e-08	-1.90448e-04	
77	2.725864e-07	-4.55034e-12	6.632151e-08	-1.90572e-04	
78	2.825864e-07	6.359281e-11	-6.16180e-08	-1.90448e-04	
79	2.925864e-07	-1.43334e-11	6.144050e-08	-1.90565e-04	
80	3.025864e-07	5.642825e-11	-5.76536e-08	-1.90451e-04	
81	3.125864e-07	-1.94775e-11	5.704978e-08	-1.90559e-04	
82	3.225864e-07	5.219973e-11	-5.37960e-08	-1.90454e-04	
83	3.325864e-07	-2.26203e-11	5.299641e-08	-1.90554e-04	
84	3.425864e-07	4.939381e-11	-5.01101e-08	-1.90457e-04	
85	3.525864e-07	-2.47190e-11	4.922013e-08	-1.90550e-04	
86	3.625864e-07	4.737443e-11	-4.66130e-08	-1.90460e-04	
87	3.725864e-07	-2.61997e-11	4.568783e-08	-1.90546e-04	
88	3.825864e-07	4.583383e-11	-4.33059e-08	-1.90463e-04	
89	3.925864e-07	-2.72829e-11	4.237689e-08	-1.90542e-04	
90	4.000000e-07	4.471309e-11	-3.96107e-08	-1.90467e-04	
91	4.004776e-07	5.293252e-09	-7.95803e-06	-1.86113e-04	
92	4.014329e-07	6.586249e-09	-8.26956e-06	-1.85600e-04	
93	4.033435e-07	-1.00733e-08	-1.08058e-05	-1.87960e-04	
94	4.052313e-07	2.190776e-09	-1.48568e-05	-1.95146e-04	
95	4.070518e-07	-2.17343e-09	-8.31779e-06	-1.93832e-04	
96	4.091347e-07	2.122900e-09	-1.42294e-05	-1.90378e-04	
97	4.100000e-07	-2.00243e-09	-9.26265e-06	-1.87815e-04	
98	4.102073e-07	-2.40512e-10	1.267440e-07	-1.90487e-04	
99	4.106218e-07	1.971482e-10	-9.96700e-08	-1.90546e-04	
100	4.114509e-07	-1.78219e-10	8.830757e-08	-1.90496e-04	
101	4.131091e-07	1.692905e-10	-8.30939e-08	-1.90541e-04	
102	4.164255e-07	-1.65054e-10	8.062893e-08	-1.90496e-04	
103	4.200000e-07	1.610979e-10	-7.83831e-08	-1.90537e-04	
104	4.205854e-07	-4.32477e-11	1.163861e-05	-1.92035e-04	
105	4.217562e-07	3.159617e-11	1.112686e-05	-1.91515e-04	
106	4.240978e-07	-5.47943e-11	1.108785e-05	-1.91637e-04	
107	4.270329e-07	-3.04313e-09	1.169030e-05	-1.97061e-04	
108	4.300000e-07	6.450131e-09	7.520427e-06	-1.96682e-04	
109	4.303111e-07	4.449181e-09	8.585692e-07	-1.92333e-04	
110	4.309333e-07	2.003177e-09	6.420067e-08	-1.90984e-04	
111	4.321777e-07	6.806947e-10	1.336107e-07	-1.90788e-04	
112	4.340402e-07	4.467631e-10	-5.54519e-08	-1.90533e-04	

Index   time            v1#branch       v2#branch       v3#branch       
--------------------------------------------------------------------------------
113	4.360744e-07	2.022494e-10	7.614762e-08	-1.90627e-04	
114	4.401427e-07	2.032794e-10	-5.35119e-08	-1.90484e-04	
115	4.482793e-07	3.008858e-11	6.062617e-08	-1.90575e-04	
116	4.582793e-07	1.037629e-10	-5.36445e-08	-1.90463e-04	
117	4.682793e-07	-1.15578e-11	5.532888e-08	-1.90560e-04	
118	4.782793e-07	8.146588e-11	-5.10186e-08	-1.90461e-04	
119	4.882793e-07	-2.43503e-11	5.140406e-08	-1.90554e-04	
120	4.982793e-07	7.224039e-11	-4.80393e-08	-1.90462e-04	
121	5.082793e-07	-3.05260e-11	4.793828e-08	-1.90549e-04	
122	5.182793e-07	6.696899e-11	-4.50991e-08	-1.90464e-04	
123	5.282793e-07	-3.40862e-11	4.476188e-08	-1.90545e-04	
124	5.382793e-07	6.351004e-11	-4.22733e-08	-1.90466e-04	
125	5.482793e-07	-3.63472e-11	4.181350e-08	-1.90541e-04	
126	5.582793e-07	6.101839e-11	-3.95845e-08	-1.90469e-04	
127	5.682793e-07	-3.78659e-11	3.906162e-08	-1.90538e-04	
128	5.782793e-07	5.910314e-11	-3.70378e-08	-1.90471e-04	
129	5.882793e-07	-3.89190e-11	3.648594e-08	-1.90535e-04	
130	5.982793e-07	5.755802e-11	-3.46314e-08	-1.90473e-04	
131	6.000000e-07	-3.84379e-11	2.890308e-08	-1.90527e-04	
132	6.001508e-07	5.117690e-09	-7.53496e-06	-1.86585e-04	
133	6.004523e-07	6.265559e-09	-8.45509e-06	-1.85522e-04	
134	6.010554e-07	5.770682e-09	-7.96737e-06	-1.85987e-04	
135	6.022615e-07	8.738638e-09	-8.65551e-06	-1.85592e-04	
136	6.036829e-07	-4.07404e-08	-1.37079e-05	-1.91246e-04	
137	6.050317e-07	3.305854e-08	-1.24882e-05	-1.90936e-04	
138	6.065815e-07	-3.13780e-08	-1.06302e-05	-2.00127e-04	
139	6.081602e-07	2.986946e-08	-1.19811e-05	-1.89016e-04	
140	6.099389e-07	-2.86077e-08	-1.11136e-05	-1.89380e-04	
141	6.100000e-07	6.486981e-09	-1.01909e-05	-1.88423e-04	
142	6.101223e-07	6.939773e-10	-1.66129e-07	-1.90539e-04	
143	6.103668e-07	-5.19468e-10	1.129542e-07	-1.90498e-04	
144	6.107797e-07	4.431478e-10	-9.00800e-08	-1.90524e-04	
145	6.116054e-07	-4.10340e-10	8.046843e-08	-1.90504e-04	
146	6.132567e-07	3.949751e-10	-7.60413e-08	-1.90521e-04	
147	6.165594e-07	-3.87668e-10	7.395382e-08	-1.90505e-04	
148	6.200000e-07	3.806767e-10	-7.19776e-08	-1.90519e-04	
149	6.205687e-07	-4.02113e-11	1.164151e-05	-1.92033e-04	
150	6.217060e-07	2.879196e-11	1.114111e-05	-1.91521e-04	
151	6.239807e-07	-5.04769e-11	1.107812e-05	-1.91620e-04	
152	6.269044e-07	-2.45120e-09	1.182690e-05	-1.96563e-04	
153	6.299776e-07	8.130023e-09	7.449779e-06	-1.96946e-04	
154	6.300000e-07	4.774259e-09	9.880140e-06	-1.97679e-04	
155	6.300449e-07	6.226751e-09	1.863542e-06	-1.93951e-04	
156	6.301346e-07	7.257117e-09	1.176750e-06	-1.93072e-04	
157	6.303065e-07	4.376982e-09	7.993780e-07	-1.92299e-04	
158	6.306503e-07	3.265315e-09	3.207143e-07	-1.91430e-04	
159	6.313379e-07	1.029661e-09	1.202992e-07	-1.90899e-04	
160	6.325346e-07	1.027913e-09	2.681520e-08	-1.90681e-04	
161	6.342049e-07	6.214790e-11	3.222331e-08	-1.90604e-04	
162	6.371384e-07	5.516215e-10	-3.38367e-09	-1.90555e-04	
163	6.422723e-07	-1.96661e-10	1.799434e-08	-1.90534e-04	
164	6.519782e-07	3.912037e-10	-1.03901e-08	-1.90516e-04	
165	6.619782e-07	-2.72232e-10	1.474797e-08	-1.90514e-04	
166	6.719782e-07	3.546172e-10	-1.16594e-08	-1.90508e-04	
167	6.819782e-07	-2.86803e-10	1.404457e-08	-1.90510e-04	
168	6.919782e-07	3.395810e-10	-1.20753e-08	-1.90505e-04	
169	7.019782e-07	-2.91304e-10	1.373453e-08	-1.90508e-04	
170	7.119782e-07	3.300182e-10	-1.22835e-08	-1.90504e-04	

Index   time            v1#branch       v2#branch       v3#branch       
--------------------------------------------------------------------------------
171	7.219782e-07	-2.92371e-10	1.355373e-08	-1.90507e-04	
172	7.319782e-07	3.228196e-10	-1.24037e-08	-1.90503e-04	
173	7.419782e-07	-2.91838e-10	1.343248e-08	-1.90506e-04	
174	7.519782e-07	3.168476e-10	-1.24790e-08	-1.90502e-04	
175	7.619782e-07	-2.90445e-10	1.334310e-08	-1.90506e-04	
176	7.719782e-07	3.116035e-10	-1.25281e-08	-1.90502e-04	
177	7.819782e-07	-2.88545e-10	1.327268e-08	-1.90505e-04	
178	7.919782e-07	3.068336e-10	-1.25606e-08	-1.90502e-04	
179	8.000000e-07	-2.85805e-10	1.321605e-08	-1.90505e-04	
180	8.004933e-07	5.663054e-09	-7.95541e-06	-1.86104e-04	
181	8.014799e-07	7.121384e-09	-8.27270e-06	-1.85591e-04	
182	8.030722e-07	3.678876e-10	-9.82694e-06	-1.86756e-04	
183	8.047340e-07	-3.87332e-08	-1.72370e-05	-1.95031e-04	
184	8.065100e-07	3.663691e-08	-5.89114e-06	-1.95067e-04	
185	8.081232e-07	-3.47865e-08	-1.67302e-05	-1.94730e-04	
186	8.099190e-07	3.325721e-08	-6.37413e-06	-1.83770e-04	
187	8.100000e-07	-1.05238e-08	-1.47318e-05	-1.92554e-04	
188	8.101319e-07	-1.89663e-09	-2.91906e-07	-1.90656e-04	
189	8.103957e-07	1.381687e-09	2.254810e-07	-1.90399e-04	
190	8.108471e-07	-1.14530e-09	-1.96171e-07	-1.90605e-04	
191	8.117499e-07	1.041225e-09	1.835677e-07	-1.90421e-04	
192	8.135555e-07	-9.92460e-10	-1.77696e-07	-1.90594e-04	
193	8.171667e-07	9.686875e-10	1.749077e-07	-1.90426e-04	
194	8.200000e-07	-9.39278e-10	-1.71400e-07	-1.90590e-04	
195	8.204540e-07	-1.05065e-10	1.165532e-05	-1.92056e-04	
196	8.213620e-07	8.840516e-11	1.125199e-05	-1.91598e-04	
197	8.231781e-07	-9.98826e-11	1.107375e-05	-1.91597e-04	
198	8.260716e-07	-2.03826e-10	1.156842e-05	-1.93700e-04	
199	8.290937e-07	8.044376e-09	9.086696e-06	-1.99553e-04	
200	8.300000e-07	-3.58505e-09	1.042953e-05	-1.97218e-04	
201	8.301652e-07	2.101942e-09	7.163739e-07	-1.91787e-04	
202	8.304956e-07	2.600465e-09	2.785904e-08	-1.90946e-04	
203	8.311563e-07	6.627119e-10	1.917463e-07	-1.90925e-04	
204	8.324778e-07	1.062738e-09	-5.70991e-08	-1.90567e-04	
205	8.349431e-07	-1.41147e-10	9.205426e-08	-1.90654e-04	
206	8.384030e-07	6.184937e-10	-6.42597e-08	-1.90475e-04	
207	8.452127e-07	-3.30837e-10	7.213446e-08	-1.90592e-04	
208	8.552127e-07	4.885507e-10	-6.39643e-08	-1.90450e-04	
209	8.652127e-07	-3.80832e-10	6.563526e-08	-1.90574e-04	
210	8.752127e-07	4.560005e-10	-6.07990e-08	-1.90448e-04	
211	8.852127e-07	-3.90622e-10	6.095531e-08	-1.90566e-04	
212	8.952127e-07	4.402376e-10	-5.71830e-08	-1.90450e-04	
213	9.052127e-07	-3.92424e-10	5.681588e-08	-1.90561e-04	
214	9.152127e-07	4.291666e-10	-5.36226e-08	-1.90453e-04	
215	9.252127e-07	-3.91233e-10	5.301304e-08	-1.90556e-04	
216	9.352127e-07	4.202241e-10	-5.02037e-08	-1.90456e-04	
217	9.452127e-07	-3.88613e-10	4.947635e-08	-1.90552e-04	
218	9.552127e-07	4.124216e-10	-4.69516e-08	-1.90459e-04	
219	9.652127e-07	-3.85213e-10	4.617005e-08	-1.90548e-04	
220	9.752127e-07	4.053116e-10	-4.38710e-08	-1.90461e-04	
221	9.852127e-07	-3.81349e-10	4.307108e-08	-1.90544e-04	
222	9.952127e-07	3.986617e-10	-4.09591e-08	-1.90464e-04	
223	1.000000e-06	-3.74052e-10	3.867875e-08	-1.90539e-04	
224	1.000312e-06	5.640660e-09	-7.83082e-06	-1.86251e-04	
225	1.000937e-06	6.742767e-09	-8.34126e-06	-1.85540e-04	
226	1.002186e-06	8.162730e-09	-8.31397e-06	-1.85923e-04	
227	1.003664e-06	-5.20270e-08	-1.39885e-05	-1.91957e-04	
228	1.005004e-06	4.183324e-08	-1.25538e-05	-1.90025e-04	

Index   time            v1#branch       v2#branch       v3#branch       
--------------------------------------------------------------------------------
229	1.006659e-06	-3.98831e-08	-1.05402e-05	-2.00372e-04	
230	1.008187e-06	3.795287e-08	-1.20487e-05	-1.88274e-04	
231	1.010000e-06	-3.64208e-08	-1.10697e-05	-1.90096e-04	
232	1.010188e-06	-3.42406e-09	2.078539e-07	-1.90563e-04	
233	1.010564e-06	2.777990e-09	-1.54739e-07	-1.90481e-04	
234	1.011315e-06	-2.49649e-09	1.329220e-07	-1.90555e-04	
235	1.012818e-06	2.365195e-09	-1.23050e-07	-1.90484e-04	
236	1.015824e-06	-2.30191e-09	1.183232e-07	-1.90551e-04	
237	1.020000e-06	2.257178e-09	-1.15037e-07	-1.90483e-04	
238	1.020601e-06	2.704295e-11	1.163405e-05	-1.92030e-04	
239	1.021804e-06	-3.50020e-11	1.111527e-05	-1.91507e-04	
240	1.024208e-06	8.305760e-12	1.109828e-05	-1.91650e-04	
241	1.027146e-06	-3.59417e-09	1.155739e-05	-1.97528e-04	
242	1.030000e-06	5.046086e-09	7.615901e-06	-1.96501e-04	
243	1.030315e-06	3.848851e-09	7.201598e-07	-1.92036e-04	
244	1.030946e-06	1.859832e-09	3.478926e-08	-1.90915e-04	
245	1.032207e-06	5.325733e-10	1.424858e-07	-1.90792e-04	
246	1.034284e-06	4.972900e-10	-6.85156e-08	-1.90513e-04	
247	1.036487e-06	8.801194e-11	8.674699e-08	-1.90635e-04	
248	1.040892e-06	2.756650e-10	-6.55659e-08	-1.90468e-04	
249	1.049704e-06	-6.44330e-11	7.194301e-08	-1.90586e-04	
250	1.059704e-06	1.861869e-10	-6.51436e-08	-1.90450e-04	
251	1.069704e-06	-9.93221e-11	6.652528e-08	-1.90572e-04	
252	1.079704e-06	1.649467e-10	-6.21547e-08	-1.90449e-04	
253	1.089704e-06	-1.09938e-10	6.233694e-08	-1.90565e-04	
254	1.099704e-06	1.552376e-10	-5.88744e-08	-1.90450e-04	
255	1.109704e-06	-1.14614e-10	5.854527e-08	-1.90560e-04	
256	1.119704e-06	1.491575e-10	-5.56581e-08	-1.90453e-04	
257	1.129704e-06	-1.16881e-10	5.511704e-08	-1.90556e-04	
258	1.139704e-06	1.447707e-10	-5.25747e-08	-1.90455e-04	
259	1.149704e-06	-1.17942e-10	5.192863e-08	-1.90552e-04	
260	1.159704e-06	1.413013e-10	-4.96442e-08	-1.90458e-04	
261	1.169704e-06	-1.18313e-10	4.894908e-08	-1.90548e-04	
262	1.179704e-06	1.383861e-10	-4.68700e-08	-1.90460e-04	
263	1.189704e-06	-1.18252e-10	4.615789e-08	-1.90545e-04	
264	1.199704e-06	1.358321e-10	-4.42493e-08	-1.90463e-04	
265	1.200000e-06	-9.59454e-11	1.527699e-08	-1.90513e-04	
266	1.200075e-06	4.560810e-09	-7.14656e-06	-1.87001e-04	
267	1.200226e-06	6.306302e-09	-8.31906e-06	-1.85729e-04	
268	1.200526e-06	5.096488e-09	-8.15161e-06	-1.85850e-04	
269	1.201128e-06	6.737126e-09	-8.14230e-06	-1.85784e-04	
270	1.202331e-06	7.787405e-09	-8.60649e-06	-1.85739e-04	
271	1.203787e-06	-3.53457e-08	-1.41108e-05	-1.91082e-04	
272	1.205124e-06	2.988639e-08	-1.17301e-05	-1.92018e-04	
273	1.206890e-06	-2.85014e-08	-1.13757e-05	-1.98216e-04	
274	1.208484e-06	2.710478e-08	-1.11783e-05	-1.88982e-04	
275	1.210000e-06	-2.57275e-08	-1.20335e-05	-1.89334e-04	
276	1.210196e-06	-2.49662e-09	1.754834e-07	-1.90546e-04	
277	1.210588e-06	2.042287e-09	-1.31536e-07	-1.90500e-04	
278	1.211373e-06	-1.84319e-09	1.133264e-07	-1.90543e-04	
279	1.212942e-06	1.750018e-09	-1.05068e-07	-1.90500e-04	
280	1.216081e-06	-1.70507e-09	1.010941e-07	-1.90540e-04	
281	1.220000e-06	1.669694e-09	-9.80320e-08	-1.90498e-04	
282	1.220628e-06	7.219754e-12	1.163089e-05	-1.92028e-04	
283	1.221883e-06	-1.64397e-11	1.109233e-05	-1.91492e-04	
284	1.224394e-06	-1.29773e-11	1.112609e-05	-1.91684e-04	
285	1.227337e-06	-4.11960e-09	1.133630e-05	-1.98334e-04	
286	1.230000e-06	2.623683e-09	7.771195e-06	-1.96159e-04	

Index   time            v1#branch       v2#branch       v3#branch       
--------------------------------------------------------------------------------
287	1.230320e-06	2.484032e-09	5.118909e-07	-1.91564e-04	
288	1.230960e-06	1.426111e-09	-9.99670e-09	-1.90790e-04	
289	1.232240e-06	5.782417e-10	1.382254e-07	-1.90772e-04	
290	1.234800e-06	3.396596e-10	-7.37625e-08	-1.90493e-04	
291	1.237545e-06	1.495702e-10	8.739313e-08	-1.90627e-04	
292	1.243034e-06	1.512046e-10	-6.94309e-08	-1.90458e-04	
293	1.253034e-06	2.330706e-11	7.405336e-08	-1.90586e-04	
294	1.263034e-06	8.323985e-11	-6.75538e-08	-1.90445e-04	
295	1.273034e-06	-4.48744e-12	6.805789e-08	-1.90574e-04	
296	1.283034e-06	6.682112e-11	-6.35864e-08	-1.90446e-04	
297	1.293034e-06	-1.85307e-11	6.344279e-08	-1.90567e-04	
298	1.303034e-06	5.933835e-11	-5.95350e-08	-1.90448e-04	
299	1.313034e-06	-2.33375e-11	5.891864e-08	-1.90561e-04	
300	1.323034e-06	5.526085e-11	-5.55735e-08	-1.90452e-04	
301	1.333034e-06	-2.62948e-11	5.474720e-08	-1.90556e-04	
302	1.343034e-06	5.251150e-11	-5.17852e-08	-1.90455e-04	
303	1.353034e-06	-2.82697e-11	5.086269e-08	-1.90552e-04	
304	1.363034e-06	5.050766e-11	-4.81898e-08	-1.90458e-04	
305	1.373034e-06	-2.96570e-11	4.722984e-08	-1.90547e-04	
306	1.383034e-06	4.896165e-11	-4.47893e-08	-1.90462e-04	
307	1.393034e-06	-3.06634e-11	4.382493e-08	-1.90544e-04	
308	1.400000e-06	4.782680e-11	-4.08535e-08	-1.90465e-04	
309	1.400453e-06	5.246302e-09	-7.94662e-06	-1.86128e-04	
310	1.401360e-06	6.474034e-09	-8.27206e-06	-1.85596e-04	
311	1.403174e-06	-2.17257e-09	-1.00130e-05	-1.87066e-04	
312	1.405093e-06	-1.12151e-08	-1.58766e-05	-1.95260e-04	
313	1.406894e-06	1.056630e-08	-7.28456e-06	-1.94104e-04	
314	1.408924e-06	-1.01071e-08	-1.52607e-05	-1.91732e-04	
315	1.410000e-06	9.315363e-09	-8.13262e-06	-1.86524e-04	
316	1.410209e-06	7.725418e-10	1.493729e-07	-1.90436e-04	
317	1.410628e-06	-6.62103e-10	-1.20424e-07	-1.90568e-04	
318	1.411466e-06	6.127928e-10	1.082298e-07	-1.90454e-04	
319	1.413140e-06	-5.89664e-10	-1.02597e-07	-1.90561e-04	
320	1.416490e-06	5.783252e-10	9.994898e-08	-1.90457e-04	
321	1.420000e-06	-5.67862e-10	-9.74429e-08	-1.90558e-04	
322	1.420572e-06	-6.54847e-11	1.164018e-05	-1.92029e-04	
323	1.421716e-06	5.248985e-11	1.113885e-05	-1.91514e-04	
324	1.424004e-06	-7.37317e-11	1.107915e-05	-1.91619e-04	
325	1.426916e-06	-2.49982e-09	1.181257e-05	-1.96589e-04	
